
T0578 000:249 SEGGER J-Link V4.54a Log File (0001ms, 0250ms total)
T0578 000:249 DLL Compiled: Sep 17 2012 15:58:45 (0001ms, 0250ms total)
T0578 000:249 Logging started @ 2013-08-29 20:49 (0001ms, 0250ms total)
T0578 000:250 JLINK_SetWarnOutHandler(...) (0000ms, 0250ms total)
T0578 000:250 JLINK_OpenEx(...)
Firmware: J-Link ARM-OB STM32 compiled Aug 22 2012 19:52:04
Hardware: V7.00
S/N: 37701108
Feature(s): RDI,FlashDL,FlashBP,JFlash,GDBFull  returns O.K. (0032ms, 0282ms total)
T0578 000:282 JLINK_SetErrorOutHandler(...) (0000ms, 0282ms total)
T0578 000:282 JLINK_ExecCommand("ProjectFile = "C:\Keil\ARM\Boards\Keil\MCB1700\emWin\GUIDemo\JLinkSettings.ini"", ...)  returns 0x00 (0002ms, 0284ms total)
T0578 000:288 JLINK_ExecCommand("Device = LPC1768", ...)
                JLINK_ExecCommand("map ram 0x10000000 - 0x10007FFF", ...)  returns 0x00 (0000ms, 0000ms total)
                JLINK_AddMirrorAreaEx(Addr = 0x00000000, Size = 0x00000000) (0000ms, 0000ms total)
              Device "LPC1768" selected (512 KB flash, 32 KB RAM).  returns 0x00 (0010ms, 0294ms total)
T0578 000:298 JLINK_ExecCommand("DisableConnectionTimeout", ...)  returns 0x00 (0000ms, 0294ms total)
T0578 000:298 JLINK_TIF_Select(JLINKARM_TIF_SWD)  returns 0x00 (0006ms, 0300ms total)
T0578 000:304 JLINK_SetSpeed(2000) (0002ms, 0302ms total)
T0578 000:306 JLINK_GetHardwareVersion()  returns 0x11170 (0000ms, 0302ms total)
T0578 000:306 JLINK_GetDLLVersion()  returns 45401 (0000ms, 0302ms total)
T0578 000:306 JLINK_GetFirmwareString(...) (0000ms, 0302ms total)
T0578 000:314 JLINK_GetDLLVersion()  returns 45401 (0001ms, 0303ms total)
T0578 000:315 JLINK_GetCompileDateTime() (0000ms, 0303ms total)
T0578 000:317 JLINK_GetFirmwareString(...) (0000ms, 0303ms total)
T0578 000:320 JLINK_GetHardwareVersion()  returns 0x11170 (0000ms, 0303ms total)
T0578 000:328 JLINK_GetId() >0x108 TIF>Found SWD-DP with ID 0x2BA01477 >0x0D TIF> >0x21 TIF> >0x0D TIF> >0x28 TIF> >0x0D TIF> >0x28 TIF> >0x0D TIF> >0x21 TIF> >0x0D TIF> >0x21 TIF> >0x0D TIF> >0x28 TIF> >0x0D TIF> >0x21 TIF> >0x0D TIF> >0x21 TIF> >0x0D TIF> >0x21 TIF> >0x0D TIF> >0x21 TIF> >0x0D TIF> >0x21 TIF> >0x0D TIF> >0x28 TIF> >0x0D TIF> >0x28 TIF> >0x0D TIF> >0x21 TIF> >0x0D TIF> >0x21 TIF> >0x0D TIF> >0x28 TIF> >0x0D TIF> >0x21 TIF> >0x0D TIF> >0x21 TIF> >0x0D TIF> >0x28 TIF> >0x0D TIF>
 >0x28 TIF> >0x0D TIF> >0x28 TIF> >0x0D TIF> >0x21 TIF> >0x0D TIF> >0x21 TIF> >0x0D TIF> >0x28 TIF> >0x0D TIF> >0x28 TIF> >0x0D TIF> >0x28 TIF> >0x0D TIF> >0x21 TIF> >0x0D TIF> >0x21 TIF> >0x0D TIF> >0x21 TIF>TPIU fitted.ETM fitted. >0x0D TIF> >0x28 TIF> >0x0D TIF> >0x21 TIF> >0x0D TIF> >0x21 TIF> >0x0D TIF> >0x28 TIF> >0x0D TIF> >0x21 TIF> >0x0D TIF> >0x21 TIF>FPUnit: 6 code (BP) slots and 2 literal slots >0x0D TIF> >0x28 TIF> >0x0D TIF> >0x21 TIF> >0x0D TIF> >0x21 TIF> >0x0D TIF> >0x28 TIF> >0x0D TIF>
 >0x21 TIF> >0x0D TIF> >0x21 TIF> >0x0D TIF> >0x28 TIF> >0x0D TIF> >0x21 TIF> >0x0D TIF> >0x21 TIF> >0x0D TIF> >0x28 TIF> >0x0D TIF> >0x21 TIF> >0x0D TIF> >0x21 TIF>Found Cortex-M3 r2p0, Little endian. >0x0D TIF> >0x21 TIF>  returns 0x2BA01477 (0108ms, 0411ms total)
T0578 000:436 JLINK_GetDeviceFamily()  returns 3 (0000ms, 0411ms total)
T0578 000:438 JLINK_ReadMem (0xE00FFFF0, 0x0010 Bytes, ...) -- CPU is running -- CPU_ReadMem(16 bytes @ 0xE00FFFF0) -- Data:  0D 00 00 00 10 00 00 00 05 00 00 00 B1 00 00 00  returns 0x00 (0003ms, 0414ms total)
T0578 000:441 JLINK_ReadMem (0xE00FFFD0, 0x0020 Bytes, ...) -- CPU is running -- CPU_ReadMem(32 bytes @ 0xE00FFFD0) -- Data:  00 00 00 00 00 00 00 00 00 00 00 00 00 00 00 00 ...  returns 0x00 (0001ms, 0415ms total)
T0578 000:442 JLINK_ReadMem (0xE00FF000, 0x0018 Bytes, ...) -- CPU is running -- CPU_ReadMem(24 bytes @ 0xE00FF000) -- Data:  03 F0 F0 FF 03 20 F0 FF 03 30 F0 FF 03 10 F0 FF ...  returns 0x00 (0001ms, 0416ms total)
T0578 000:443 JLINK_ReadMemU32(0xE000ED00, 0x0001 Items, ...) -- CPU is running -- CPU_ReadMem(4 bytes @ 0xE000ED00) -- Data:  30 C2 2F 41  returns 0x01 (0001ms, 0417ms total)
T0578 000:444 JLINK_SetResetType(JLINKARM_RESET_TYPE_NORMAL)  returns ??? (0000ms, 0417ms total)
T0578 000:444 JLINK_Reset() -- CPU is running -- CPU_WriteMem(4 bytes @ 0xE000EDF0) -- CPU is running -- CPU_WriteMem(4 bytes @ 0xE000EDFC) >0x35 TIF> -- CPU is running -- CPU_WriteMem(4 bytes @ 0xE000ED0C) -- CPU is running -- CPU_ReadMem(4 bytes @ 0xE000EDF0) -- CPU is running -- CPU_ReadMem(4 bytes @ 0xE000EDF0) -- CPU is running -- CPU_WriteMem(4 bytes @ 0xE000EDF0) -- CPU is running -- CPU_WriteMem(4 bytes @ 0xE000EDFC) -- CPU is running -- CPU_ReadMem(4 bytes @ 0xE000EDF0)
 -- CPU_WriteMem(4 bytes @ 0xE000EDFC) -- CPU_WriteMem(4 bytes @ 0xE000EDFC) -- CPU_WriteMem(4 bytes @ 0xE000EDFC) -- CPU_WriteMem(4 bytes @ 0xE000EDFC) -- CPU_WriteMem(4 bytes @ 0xE000EDFC) -- CPU_WriteMem(4 bytes @ 0xE0001050) -- CPU_WriteMem(4 bytes @ 0xE0001054) -- CPU_WriteMem(4 bytes @ 0xE0001058) -- CPU_WriteMem(4 bytes @ 0xE000EDFC) -- CPU_WriteMem(4 bytes @ 0xE0001058) -- CPU_ReadMem(4 bytes @ 0x00000004) -- CPU_ReadMem(4 bytes @ 0xE0002000) -- CPU_ReadMem(4 bytes @ 0xE0002008)
 -- CPU_ReadMem(4 bytes @ 0xE000200C) -- CPU_ReadMem(4 bytes @ 0xE0002010) -- CPU_ReadMem(4 bytes @ 0xE0002014) -- CPU_ReadMem(4 bytes @ 0xE0002018) -- CPU_ReadMem(4 bytes @ 0xE000201C) -- CPU_WriteMem(4 bytes @ 0xE0002000) -- CPU_WriteMem(4 bytes @ 0xE0002008) -- CPU_WriteMem(4 bytes @ 0xE000200C) -- CPU_WriteMem(4 bytes @ 0xE0002010) -- CPU_WriteMem(4 bytes @ 0xE0002014) -- CPU_WriteMem(4 bytes @ 0xE0002018) -- CPU_WriteMem(4 bytes @ 0xE000201C)
                JLINK_ReadMemHW(0x400FC040, 0x0004 Bytes, ...) -- CPU_ReadMem(4 bytes @ 0x400FC040) -- Data:  01 00 00 00  returns 0x00 (0001ms, 0001ms total)
               -- MA0 is in flash -- Unmirror addr 0x00000168 -- CPU_WriteMem(4 bytes @ 0xE0002000) -- CPU_WriteMem(4 bytes @ 0xE0002008) -- CPU_WriteMem(4 bytes @ 0xE000200C) -- CPU_WriteMem(4 bytes @ 0xE0002010) -- CPU_WriteMem(4 bytes @ 0xE0002014) -- CPU_WriteMem(4 bytes @ 0xE0002018) -- CPU_WriteMem(4 bytes @ 0xE000201C) -- CPU_WriteMem(4 bytes @ 0xE0002000) (0266ms, 0683ms total)
T0578 000:710 JLINK_Halt()  returns 0x00 (0000ms, 0683ms total)
T0578 000:710 JLINK_IsHalted() -- Unmirror addr 0x00000168  returns TRUE (0000ms, 0683ms total)
T0578 000:710 JLINK_ReadMemU32(0xE000EDF0, 0x0001 Items, ...) -- CPU_ReadMem(4 bytes @ 0xE000EDF0) -- Data:  03 00 03 00  returns 0x01 (0001ms, 0684ms total)
T0578 000:711 JLINK_WriteU32(0xE000EDF0, 0xA05F0003) -- CPU_WriteMem(4 bytes @ 0xE000EDF0) -- Invalidate MA0 status  returns 0x00 (0001ms, 0685ms total)
T0578 000:712 JLINK_WriteU32(0xE000EDFC, 0x01000000) -- CPU_WriteMem(4 bytes @ 0xE000EDFC)  returns 0x00 (0001ms, 0686ms total)
T0578 000:724 JLINK_GetHWStatus(...)  returns 0x00 (0001ms, 0687ms total)
T0578 000:733 JLINK_GetNumBPUnits(Type = 0xFFFFFF00)  returns 0x06 (0000ms, 0687ms total)
T0578 000:733 JLINK_GetNumBPUnits(Type = 0xF0)  returns 0x2000 (0000ms, 0687ms total)
T0578 000:733 JLINK_GetNumWPUnits()  returns 0x04 (0000ms, 0687ms total)
T0578 000:742 JLINK_GetSpeed()  returns 0x7D0 (0000ms, 0687ms total)
T0578 000:746 JLINK_ReadMemU32(0xE000E004, 0x0001 Items, ...) -- CPU_ReadMem(4 bytes @ 0xE000E004) -- Data:  01 00 00 00  returns 0x01 (0002ms, 0689ms total)
T0578 000:748 JLINK_ReadMemU32(0xE000E004, 0x0001 Items, ...) -- CPU_ReadMem(4 bytes @ 0xE000E004) -- Data:  01 00 00 00  returns 0x01 (0001ms, 0690ms total)
T0578 000:749 JLINK_WriteMem(0xE0001000, 0x001C Bytes, ...) -- Data:  01 00 00 00 00 00 00 00 00 00 00 00 00 00 00 00 ... -- CPU_WriteMem(28 bytes @ 0xE0001000)  returns 0x1C (0001ms, 0691ms total)
T0578 000:750 JLINK_ReadMem (0xE0001000, 0x001C Bytes, ...) -- CPU_ReadMem(28 bytes @ 0xE0001000) -- Data:  01 00 00 40 00 00 00 00 00 00 00 00 00 00 00 00 ...  returns 0x00 (0001ms, 0692ms total)
T0578 000:751 JLINK_Halt()  returns 0x00 (0000ms, 0692ms total)
T0578 000:751 JLINK_IsHalted()
                JLINK_ReadMemHW(0x400FC040, 0x0004 Bytes, ...) -- CPU_ReadMem(4 bytes @ 0x400FC040) -- Data:  01 00 00 00  returns 0x00 (0001ms, 0001ms total)
               -- MA0 is in flash -- Unmirror addr 0x00000168  returns TRUE (0001ms, 0693ms total)
T0578 000:756 JLINK_WriteMem(0x10000000, 0x01E4 Bytes, ...) -- Data:  00 BE 0A E0 0D 78 2D 06 68 40 08 24 40 00 00 D3 ... -- CPU_WriteMem(484 bytes @ 0x10000000)  returns 0x1E4 (0007ms, 0699ms total)
T0578 000:763 JLINK_WriteReg(R0, 0x00000000)  returns 0x00 (0000ms, 0699ms total)
T0578 000:763 JLINK_WriteReg(R1, 0x00B71B00)  returns 0x00 (0000ms, 0699ms total)
T0578 000:763 JLINK_WriteReg(R2, 0x00000001)  returns 0x00 (0000ms, 0699ms total)
T0578 000:763 JLINK_WriteReg(R3, 0x00000000)  returns 0x00 (0000ms, 0699ms total)
T0578 000:763 JLINK_WriteReg(R4, 0x00000000)  returns 0x00 (0000ms, 0699ms total)
T0578 000:763 JLINK_WriteReg(R5, 0x00000000)  returns 0x00 (0000ms, 0699ms total)
T0578 000:763 JLINK_WriteReg(R6, 0x00000000)  returns 0x00 (0000ms, 0699ms total)
T0578 000:763 JLINK_WriteReg(R7, 0x00000000)  returns 0x00 (0000ms, 0699ms total)
T0578 000:763 JLINK_WriteReg(R8, 0x00000000)  returns 0x00 (0000ms, 0699ms total)
T0578 000:763 JLINK_WriteReg(R9, 0x100001DC)  returns 0x00 (0000ms, 0699ms total)
T0578 000:763 JLINK_WriteReg(R10, 0x00000000)  returns 0x00 (0000ms, 0699ms total)
T0578 000:763 JLINK_WriteReg(R11, 0x00000000)  returns 0x00 (0000ms, 0699ms total)
T0578 000:763 JLINK_WriteReg(R12, 0x00000000)  returns 0x00 (0000ms, 0699ms total)
T0578 000:763 JLINK_WriteReg(R13, 0x10000800)  returns 0x00 (0000ms, 0699ms total)
T0578 000:763 JLINK_WriteReg(R14, 0x10000001)  returns 0x00 (0000ms, 0699ms total)
T0578 000:763 JLINK_WriteReg(R15, 0x10000044)  returns 0x00 (0000ms, 0699ms total)
T0578 000:763 JLINK_WriteReg(XPSR, 0x01000000)  returns 0x00 (0000ms, 0699ms total)
T0578 000:763 JLINK_WriteReg(MSP, 0x10000800)  returns 0x00 (0000ms, 0699ms total)
T0578 000:764 JLINK_WriteReg(PSP, 0x10000800)  returns 0x00 (0000ms, 0699ms total)
T0578 000:764 JLINK_WriteReg(CFBP, 0x00000000)  returns 0x00 (0000ms, 0699ms total)
T0578 000:764 JLINK_SetBPEx(Addr = 0x10000000, Type = 0xFFFFFFF2)  returns 0x00000001 (0000ms, 0699ms total)
T0578 000:764 JLINK_Go() -- Invalidate MA0 status -- CPU_WriteMem(4 bytes @ 0xE0002008) -- CPU_WriteMem(4 bytes @ 0xE000200C) -- CPU_WriteMem(4 bytes @ 0xE0002010) -- CPU_WriteMem(4 bytes @ 0xE0002014) -- CPU_WriteMem(4 bytes @ 0xE0002018) -- CPU_WriteMem(4 bytes @ 0xE000201C) (0010ms, 0709ms total)
T0578 000:774 JLINK_IsHalted()  returns TRUE (0004ms, 0713ms total)
T0578 000:778 JLINK_ReadReg(R15)  returns 0x10000000 (0000ms, 0709ms total)
T0578 000:778 JLINK_ClrBPEx(BPHandle = 0x00000001)  returns 0x00 (0000ms, 0709ms total)
T0578 000:778 JLINK_ReadReg(R0)  returns 0x00000000 (0000ms, 0709ms total)
T0578 000:778 JLINK_WriteReg(R0, 0x00000000)  returns 0x00 (0000ms, 0709ms total)
T0578 000:778 JLINK_WriteReg(R1, 0x00B71B00)  returns 0x00 (0000ms, 0709ms total)
T0578 000:778 JLINK_WriteReg(R2, 0x00000001)  returns 0x00 (0000ms, 0709ms total)
T0578 000:778 JLINK_WriteReg(R3, 0x00000000)  returns 0x00 (0000ms, 0709ms total)
T0578 000:778 JLINK_WriteReg(R4, 0x00000000)  returns 0x00 (0000ms, 0709ms total)
T0578 000:778 JLINK_WriteReg(R5, 0x00000000)  returns 0x00 (0000ms, 0709ms total)
T0578 000:778 JLINK_WriteReg(R6, 0x00000000)  returns 0x00 (0000ms, 0709ms total)
T0578 000:778 JLINK_WriteReg(R7, 0x00000000)  returns 0x00 (0000ms, 0709ms total)
T0578 000:778 JLINK_WriteReg(R8, 0x00000000)  returns 0x00 (0001ms, 0710ms total)
T0578 000:779 JLINK_WriteReg(R9, 0x100001DC)  returns 0x00 (0000ms, 0710ms total)
T0578 000:779 JLINK_WriteReg(R10, 0x00000000)  returns 0x00 (0000ms, 0710ms total)
T0578 000:779 JLINK_WriteReg(R11, 0x00000000)  returns 0x00 (0000ms, 0710ms total)
T0578 000:779 JLINK_WriteReg(R12, 0x00000000)  returns 0x00 (0000ms, 0710ms total)
T0578 000:779 JLINK_WriteReg(R13, 0x10000800)  returns 0x00 (0000ms, 0710ms total)
T0578 000:779 JLINK_WriteReg(R14, 0x10000001)  returns 0x00 (0000ms, 0710ms total)
T0578 000:779 JLINK_WriteReg(R15, 0x100000D0)  returns 0x00 (0000ms, 0710ms total)
T0578 000:779 JLINK_WriteReg(XPSR, 0x01000000)  returns 0x00 (0000ms, 0710ms total)
T0578 000:779 JLINK_WriteReg(MSP, 0x10000800)  returns 0x00 (0000ms, 0710ms total)
T0578 000:779 JLINK_WriteReg(PSP, 0x10000800)  returns 0x00 (0000ms, 0710ms total)
T0578 000:779 JLINK_WriteReg(CFBP, 0x00000000)  returns 0x00 (0000ms, 0710ms total)
T0578 000:779 JLINK_SetBPEx(Addr = 0x10000000, Type = 0xFFFFFFF2)  returns 0x00000002 (0000ms, 0710ms total)
T0578 000:779 JLINK_Go() (0003ms, 0713ms total)
T0578 000:782 JLINK_IsHalted()  returns FALSE (0001ms, 0714ms total)
T0578 000:833 JLINK_IsHalted()  returns FALSE (0001ms, 0714ms total)
T0578 000:884 JLINK_IsHalted()  returns FALSE (0001ms, 0714ms total)
T0578 000:935 JLINK_IsHalted()  returns TRUE (0005ms, 0718ms total)
T0578 000:940 JLINK_ReadReg(R15)  returns 0x10000000 (0000ms, 0713ms total)
T0578 000:940 JLINK_ClrBPEx(BPHandle = 0x00000002)  returns 0x00 (0000ms, 0713ms total)
T0578 000:940 JLINK_ReadReg(R0)  returns 0x00000000 (0000ms, 0713ms total)
T0578 000:992 JLINK_WriteReg(R0, 0x00000001)  returns 0x00 (0000ms, 0713ms total)
T0578 000:992 JLINK_WriteReg(R1, 0x00B71B00)  returns 0x00 (0000ms, 0713ms total)
T0578 000:992 JLINK_WriteReg(R2, 0x00000001)  returns 0x00 (0001ms, 0714ms total)
T0578 000:993 JLINK_WriteReg(R3, 0x00000000)  returns 0x00 (0000ms, 0714ms total)
T0578 000:993 JLINK_WriteReg(R4, 0x00000000)  returns 0x00 (0000ms, 0714ms total)
T0578 000:993 JLINK_WriteReg(R5, 0x00000000)  returns 0x00 (0000ms, 0714ms total)
T0578 000:993 JLINK_WriteReg(R6, 0x00000000)  returns 0x00 (0000ms, 0714ms total)
T0578 000:993 JLINK_WriteReg(R7, 0x00000000)  returns 0x00 (0000ms, 0714ms total)
T0578 000:993 JLINK_WriteReg(R8, 0x00000000)  returns 0x00 (0000ms, 0714ms total)
T0578 000:993 JLINK_WriteReg(R9, 0x100001DC)  returns 0x00 (0000ms, 0714ms total)
T0578 000:993 JLINK_WriteReg(R10, 0x00000000)  returns 0x00 (0000ms, 0714ms total)
T0578 000:993 JLINK_WriteReg(R11, 0x00000000)  returns 0x00 (0000ms, 0714ms total)
T0578 000:993 JLINK_WriteReg(R12, 0x00000000)  returns 0x00 (0000ms, 0714ms total)
T0578 000:993 JLINK_WriteReg(R13, 0x10000800)  returns 0x00 (0000ms, 0714ms total)
T0578 000:993 JLINK_WriteReg(R14, 0x10000001)  returns 0x00 (0001ms, 0715ms total)
T0578 000:994 JLINK_WriteReg(R15, 0x100000CC)  returns 0x00 (0000ms, 0715ms total)
T0578 000:994 JLINK_WriteReg(XPSR, 0x01000000)  returns 0x00 (0000ms, 0715ms total)
T0578 000:994 JLINK_WriteReg(MSP, 0x10000800)  returns 0x00 (0000ms, 0715ms total)
T0578 000:994 JLINK_WriteReg(PSP, 0x10000800)  returns 0x00 (0000ms, 0715ms total)
T0578 000:994 JLINK_WriteReg(CFBP, 0x00000000)  returns 0x00 (0000ms, 0715ms total)
T0578 000:994 JLINK_SetBPEx(Addr = 0x10000000, Type = 0xFFFFFFF2)  returns 0x00000003 (0000ms, 0715ms total)
T0578 000:994 JLINK_Go() (0003ms, 0718ms total)
T0578 000:997 JLINK_IsHalted()  returns TRUE (0004ms, 0722ms total)
T0578 001:001 JLINK_ReadReg(R15)  returns 0x10000000 (0001ms, 0719ms total)
T0578 001:002 JLINK_ClrBPEx(BPHandle = 0x00000003)  returns 0x00 (0000ms, 0719ms total)
T0578 001:002 JLINK_ReadReg(R0)  returns 0x00000000 (0000ms, 0719ms total)
T0578 001:012 JLINK_WriteMem(0x10000000, 0x01E4 Bytes, ...) -- Data:  00 BE 0A E0 0D 78 2D 06 68 40 08 24 40 00 00 D3 ... -- CPU_WriteMem(484 bytes @ 0x10000000)  returns 0x1E4 (0007ms, 0726ms total)
T0578 001:019 JLINK_WriteReg(R0, 0x00000000)  returns 0x00 (0000ms, 0726ms total)
T0578 001:019 JLINK_WriteReg(R1, 0x00B71B00)  returns 0x00 (0000ms, 0726ms total)
T0578 001:019 JLINK_WriteReg(R2, 0x00000002)  returns 0x00 (0000ms, 0726ms total)
T0578 001:019 JLINK_WriteReg(R3, 0x00000000)  returns 0x00 (0000ms, 0726ms total)
T0578 001:019 JLINK_WriteReg(R4, 0x00000000)  returns 0x00 (0000ms, 0726ms total)
T0578 001:019 JLINK_WriteReg(R5, 0x00000000)  returns 0x00 (0000ms, 0726ms total)
T0578 001:019 JLINK_WriteReg(R6, 0x00000000)  returns 0x00 (0000ms, 0726ms total)
T0578 001:019 JLINK_WriteReg(R7, 0x00000000)  returns 0x00 (0001ms, 0727ms total)
T0578 001:020 JLINK_WriteReg(R8, 0x00000000)  returns 0x00 (0000ms, 0727ms total)
T0578 001:020 JLINK_WriteReg(R9, 0x100001DC)  returns 0x00 (0000ms, 0727ms total)
T0578 001:020 JLINK_WriteReg(R10, 0x00000000)  returns 0x00 (0000ms, 0727ms total)
T0578 001:020 JLINK_WriteReg(R11, 0x00000000)  returns 0x00 (0000ms, 0727ms total)
T0578 001:020 JLINK_WriteReg(R12, 0x00000000)  returns 0x00 (0000ms, 0727ms total)
T0578 001:020 JLINK_WriteReg(R13, 0x10000800)  returns 0x00 (0000ms, 0727ms total)
T0578 001:020 JLINK_WriteReg(R14, 0x10000001)  returns 0x00 (0000ms, 0727ms total)
T0578 001:020 JLINK_WriteReg(R15, 0x10000044)  returns 0x00 (0000ms, 0727ms total)
T0578 001:020 JLINK_WriteReg(XPSR, 0x01000000)  returns 0x00 (0000ms, 0727ms total)
T0578 001:020 JLINK_WriteReg(MSP, 0x10000800)  returns 0x00 (0000ms, 0727ms total)
T0578 001:020 JLINK_WriteReg(PSP, 0x10000800)  returns 0x00 (0001ms, 0728ms total)
T0578 001:021 JLINK_WriteReg(CFBP, 0x00000000)  returns 0x00 (0000ms, 0728ms total)
T0578 001:021 JLINK_SetBPEx(Addr = 0x10000000, Type = 0xFFFFFFF2)  returns 0x00000004 (0000ms, 0728ms total)
T0578 001:021 JLINK_Go() (0003ms, 0731ms total)
T0578 001:024 JLINK_IsHalted()  returns TRUE (0005ms, 0736ms total)
T0578 001:029 JLINK_ReadReg(R15)  returns 0x10000000 (0000ms, 0731ms total)
T0578 001:029 JLINK_ClrBPEx(BPHandle = 0x00000004)  returns 0x00 (0000ms, 0731ms total)
T0578 001:029 JLINK_ReadReg(R0)  returns 0x00000000 (0000ms, 0731ms total)
T0578 001:030 JLINK_WriteMem(0x10000204, 0x0400 Bytes, ...) -- Data:  08 1C 00 10 E1 01 00 00 E9 01 00 00 EB 01 00 00 ... -- CPU_WriteMem(1024 bytes @ 0x10000204)  returns 0x400 (0013ms, 0744ms total)
T0578 001:043 JLINK_WriteReg(R0, 0x00000000)  returns 0x00 (0000ms, 0744ms total)
T0578 001:043 JLINK_WriteReg(R1, 0x00000400)  returns 0x00 (0000ms, 0744ms total)
T0578 001:043 JLINK_WriteReg(R2, 0x10000204)  returns 0x00 (0000ms, 0744ms total)
T0578 001:043 JLINK_WriteReg(R3, 0x00000000)  returns 0x00 (0000ms, 0744ms total)
T0578 001:043 JLINK_WriteReg(R4, 0x00000000)  returns 0x00 (0000ms, 0744ms total)
T0578 001:043 JLINK_WriteReg(R5, 0x00000000)  returns 0x00 (0000ms, 0744ms total)
T0578 001:043 JLINK_WriteReg(R6, 0x00000000)  returns 0x00 (0000ms, 0744ms total)
T0578 001:043 JLINK_WriteReg(R7, 0x00000000)  returns 0x00 (0000ms, 0744ms total)
T0578 001:043 JLINK_WriteReg(R8, 0x00000000)  returns 0x00 (0000ms, 0744ms total)
T0578 001:043 JLINK_WriteReg(R9, 0x100001DC)  returns 0x00 (0001ms, 0745ms total)
T0578 001:044 JLINK_WriteReg(R10, 0x00000000)  returns 0x00 (0000ms, 0745ms total)
T0578 001:044 JLINK_WriteReg(R11, 0x00000000)  returns 0x00 (0000ms, 0745ms total)
T0578 001:044 JLINK_WriteReg(R12, 0x00000000)  returns 0x00 (0000ms, 0745ms total)
T0578 001:044 JLINK_WriteReg(R13, 0x10000800)  returns 0x00 (0000ms, 0745ms total)
T0578 001:044 JLINK_WriteReg(R14, 0x10000001)  returns 0x00 (0000ms, 0745ms total)
T0578 001:044 JLINK_WriteReg(R15, 0x10000156)  returns 0x00 (0000ms, 0745ms total)
T0578 001:044 JLINK_WriteReg(XPSR, 0x01000000)  returns 0x00 (0000ms, 0745ms total)
T0578 001:044 JLINK_WriteReg(MSP, 0x10000800)  returns 0x00 (0000ms, 0745ms total)
T0578 001:044 JLINK_WriteReg(PSP, 0x10000800)  returns 0x00 (0000ms, 0745ms total)
T0578 001:044 JLINK_WriteReg(CFBP, 0x00000000)  returns 0x00 (0000ms, 0745ms total)
T0578 001:044 JLINK_SetBPEx(Addr = 0x10000000, Type = 0xFFFFFFF2)  returns 0x00000005 (0000ms, 0745ms total)
T0578 001:044 JLINK_Go() (0004ms, 0749ms total)
T0578 001:048 JLINK_IsHalted()  returns FALSE (0001ms, 0750ms total)
T0578 001:099 JLINK_IsHalted()  returns TRUE (0004ms, 0753ms total)
T0578 001:103 JLINK_ReadReg(R15)  returns 0x10000000 (0000ms, 0749ms total)
T0578 001:103 JLINK_ClrBPEx(BPHandle = 0x00000005)  returns 0x00 (0000ms, 0749ms total)
T0578 001:103 JLINK_ReadReg(R0)  returns 0x00000000 (0000ms, 0749ms total)
T0578 001:105 JLINK_WriteMem(0x10000204, 0x0400 Bytes, ...) -- Data:  AA 02 C2 60 4F F0 55 01 C1 60 04 60 C2 60 C1 60 ... -- CPU_WriteMem(1024 bytes @ 0x10000204)  returns 0x400 (0013ms, 0762ms total)
T0578 001:118 JLINK_WriteReg(R0, 0x00000400)  returns 0x00 (0000ms, 0762ms total)
T0578 001:118 JLINK_WriteReg(R1, 0x00000400)  returns 0x00 (0000ms, 0762ms total)
T0578 001:118 JLINK_WriteReg(R2, 0x10000204)  returns 0x00 (0000ms, 0762ms total)
T0578 001:118 JLINK_WriteReg(R3, 0x00000000)  returns 0x00 (0000ms, 0762ms total)
T0578 001:118 JLINK_WriteReg(R4, 0x00000000)  returns 0x00 (0000ms, 0762ms total)
T0578 001:118 JLINK_WriteReg(R5, 0x00000000)  returns 0x00 (0000ms, 0762ms total)
T0578 001:118 JLINK_WriteReg(R6, 0x00000000)  returns 0x00 (0000ms, 0762ms total)
T0578 001:118 JLINK_WriteReg(R7, 0x00000000)  returns 0x00 (0000ms, 0762ms total)
T0578 001:118 JLINK_WriteReg(R8, 0x00000000)  returns 0x00 (0001ms, 0763ms total)
T0578 001:119 JLINK_WriteReg(R9, 0x100001DC)  returns 0x00 (0000ms, 0763ms total)
T0578 001:119 JLINK_WriteReg(R10, 0x00000000)  returns 0x00 (0000ms, 0763ms total)
T0578 001:119 JLINK_WriteReg(R11, 0x00000000)  returns 0x00 (0000ms, 0763ms total)
T0578 001:119 JLINK_WriteReg(R12, 0x00000000)  returns 0x00 (0000ms, 0763ms total)
T0578 001:119 JLINK_WriteReg(R13, 0x10000800)  returns 0x00 (0000ms, 0763ms total)
T0578 001:119 JLINK_WriteReg(R14, 0x10000001)  returns 0x00 (0000ms, 0763ms total)
T0578 001:119 JLINK_WriteReg(R15, 0x10000156)  returns 0x00 (0000ms, 0763ms total)
T0578 001:119 JLINK_WriteReg(XPSR, 0x01000000)  returns 0x00 (0000ms, 0763ms total)
T0578 001:119 JLINK_WriteReg(MSP, 0x10000800)  returns 0x00 (0000ms, 0763ms total)
T0578 001:119 JLINK_WriteReg(PSP, 0x10000800)  returns 0x00 (0000ms, 0763ms total)
T0578 001:119 JLINK_WriteReg(CFBP, 0x00000000)  returns 0x00 (0000ms, 0763ms total)
T0578 001:119 JLINK_SetBPEx(Addr = 0x10000000, Type = 0xFFFFFFF2)  returns 0x00000006 (0001ms, 0764ms total)
T0578 001:120 JLINK_Go() (0004ms, 0768ms total)
T0578 001:124 JLINK_IsHalted()  returns FALSE (0001ms, 0769ms total)
T0578 001:175 JLINK_IsHalted()  returns TRUE (0004ms, 0772ms total)
T0578 001:179 JLINK_ReadReg(R15)  returns 0x10000000 (0000ms, 0768ms total)
T0578 001:179 JLINK_ClrBPEx(BPHandle = 0x00000006)  returns 0x00 (0000ms, 0768ms total)
T0578 001:179 JLINK_ReadReg(R0)  returns 0x00000000 (0000ms, 0768ms total)
T0578 001:181 JLINK_WriteMem(0x10000204, 0x0400 Bytes, ...) -- Data:  31 20 00 F0 1F F9 41 F6 26 41 32 20 00 F0 1A F9 ... -- CPU_WriteMem(1024 bytes @ 0x10000204)  returns 0x400 (0013ms, 0781ms total)
T0578 001:194 JLINK_WriteReg(R0, 0x00000800)  returns 0x00 (0000ms, 0781ms total)
T0578 001:194 JLINK_WriteReg(R1, 0x00000400)  returns 0x00 (0000ms, 0781ms total)
T0578 001:194 JLINK_WriteReg(R2, 0x10000204)  returns 0x00 (0000ms, 0781ms total)
T0578 001:194 JLINK_WriteReg(R3, 0x00000000)  returns 0x00 (0000ms, 0781ms total)
T0578 001:194 JLINK_WriteReg(R4, 0x00000000)  returns 0x00 (0000ms, 0781ms total)
T0578 001:194 JLINK_WriteReg(R5, 0x00000000)  returns 0x00 (0000ms, 0781ms total)
T0578 001:194 JLINK_WriteReg(R6, 0x00000000)  returns 0x00 (0000ms, 0781ms total)
T0578 001:194 JLINK_WriteReg(R7, 0x00000000)  returns 0x00 (0000ms, 0781ms total)
T0578 001:194 JLINK_WriteReg(R8, 0x00000000)  returns 0x00 (0000ms, 0781ms total)
T0578 001:194 JLINK_WriteReg(R9, 0x100001DC)  returns 0x00 (0001ms, 0782ms total)
T0578 001:195 JLINK_WriteReg(R10, 0x00000000)  returns 0x00 (0000ms, 0782ms total)
T0578 001:195 JLINK_WriteReg(R11, 0x00000000)  returns 0x00 (0000ms, 0782ms total)
T0578 001:195 JLINK_WriteReg(R12, 0x00000000)  returns 0x00 (0000ms, 0782ms total)
T0578 001:195 JLINK_WriteReg(R13, 0x10000800)  returns 0x00 (0000ms, 0782ms total)
T0578 001:195 JLINK_WriteReg(R14, 0x10000001)  returns 0x00 (0000ms, 0782ms total)
T0578 001:195 JLINK_WriteReg(R15, 0x10000156)  returns 0x00 (0000ms, 0782ms total)
T0578 001:195 JLINK_WriteReg(XPSR, 0x01000000)  returns 0x00 (0000ms, 0782ms total)
T0578 001:195 JLINK_WriteReg(MSP, 0x10000800)  returns 0x00 (0000ms, 0782ms total)
T0578 001:195 JLINK_WriteReg(PSP, 0x10000800)  returns 0x00 (0000ms, 0782ms total)
T0578 001:195 JLINK_WriteReg(CFBP, 0x00000000)  returns 0x00 (0000ms, 0782ms total)
T0578 001:195 JLINK_SetBPEx(Addr = 0x10000000, Type = 0xFFFFFFF2)  returns 0x00000007 (0000ms, 0782ms total)
T0578 001:195 JLINK_Go() (0004ms, 0786ms total)
T0578 001:199 JLINK_IsHalted()  returns FALSE (0001ms, 0787ms total)
T0578 001:250 JLINK_IsHalted()  returns TRUE (0004ms, 0790ms total)
T0578 001:254 JLINK_ReadReg(R15)  returns 0x10000000 (0000ms, 0786ms total)
T0578 001:254 JLINK_ClrBPEx(BPHandle = 0x00000007)  returns 0x00 (0000ms, 0786ms total)
T0578 001:254 JLINK_ReadReg(R0)  returns 0x00000000 (0000ms, 0786ms total)
T0578 001:255 JLINK_WriteMem(0x10000204, 0x0400 Bytes, ...) -- Data:  70 BD 70 B5 5D 4E 40 25 04 46 F5 61 72 20 00 F0 ... -- CPU_WriteMem(1024 bytes @ 0x10000204)  returns 0x400 (0014ms, 0800ms total)
T0578 001:269 JLINK_WriteReg(R0, 0x00000C00)  returns 0x00 (0000ms, 0800ms total)
T0578 001:269 JLINK_WriteReg(R1, 0x00000400)  returns 0x00 (0000ms, 0800ms total)
T0578 001:269 JLINK_WriteReg(R2, 0x10000204)  returns 0x00 (0000ms, 0800ms total)
T0578 001:269 JLINK_WriteReg(R3, 0x00000000)  returns 0x00 (0000ms, 0800ms total)
T0578 001:269 JLINK_WriteReg(R4, 0x00000000)  returns 0x00 (0000ms, 0800ms total)
T0578 001:269 JLINK_WriteReg(R5, 0x00000000)  returns 0x00 (0000ms, 0800ms total)
T0578 001:269 JLINK_WriteReg(R6, 0x00000000)  returns 0x00 (0000ms, 0800ms total)
T0578 001:269 JLINK_WriteReg(R7, 0x00000000)  returns 0x00 (0000ms, 0800ms total)
T0578 001:269 JLINK_WriteReg(R8, 0x00000000)  returns 0x00 (0000ms, 0800ms total)
T0578 001:269 JLINK_WriteReg(R9, 0x100001DC)  returns 0x00 (0000ms, 0800ms total)
T0578 001:269 JLINK_WriteReg(R10, 0x00000000)  returns 0x00 (0000ms, 0800ms total)
T0578 001:269 JLINK_WriteReg(R11, 0x00000000)  returns 0x00 (0000ms, 0800ms total)
T0578 001:269 JLINK_WriteReg(R12, 0x00000000)  returns 0x00 (0000ms, 0800ms total)
T0578 001:269 JLINK_WriteReg(R13, 0x10000800)  returns 0x00 (0000ms, 0800ms total)
T0578 001:269 JLINK_WriteReg(R14, 0x10000001)  returns 0x00 (0000ms, 0800ms total)
T0578 001:270 JLINK_WriteReg(R15, 0x10000156)  returns 0x00 (0000ms, 0800ms total)
T0578 001:270 JLINK_WriteReg(XPSR, 0x01000000)  returns 0x00 (0000ms, 0800ms total)
T0578 001:270 JLINK_WriteReg(MSP, 0x10000800)  returns 0x00 (0000ms, 0800ms total)
T0578 001:270 JLINK_WriteReg(PSP, 0x10000800)  returns 0x00 (0000ms, 0800ms total)
T0578 001:270 JLINK_WriteReg(CFBP, 0x00000000)  returns 0x00 (0000ms, 0800ms total)
T0578 001:270 JLINK_SetBPEx(Addr = 0x10000000, Type = 0xFFFFFFF2)  returns 0x00000008 (0000ms, 0800ms total)
T0578 001:270 JLINK_Go() (0003ms, 0803ms total)
T0578 001:273 JLINK_IsHalted()  returns FALSE (0001ms, 0804ms total)
T0578 001:324 JLINK_IsHalted()  returns TRUE (0004ms, 0807ms total)
T0578 001:328 JLINK_ReadReg(R15)  returns 0x10000000 (0000ms, 0803ms total)
T0578 001:328 JLINK_ClrBPEx(BPHandle = 0x00000008)  returns 0x00 (0000ms, 0803ms total)
T0578 001:328 JLINK_ReadReg(R0)  returns 0x00000000 (0000ms, 0803ms total)
T0578 001:329 JLINK_WriteMem(0x10000204, 0x0400 Bytes, ...) -- Data:  E3 FA 30 68 06 F0 44 FB 04 98 00 28 07 D0 05 B0 ... -- CPU_WriteMem(1024 bytes @ 0x10000204)  returns 0x400 (0013ms, 0816ms total)
T0578 001:342 JLINK_WriteReg(R0, 0x00001000)  returns 0x00 (0000ms, 0816ms total)
T0578 001:342 JLINK_WriteReg(R1, 0x00000400)  returns 0x00 (0000ms, 0816ms total)
T0578 001:342 JLINK_WriteReg(R2, 0x10000204)  returns 0x00 (0000ms, 0816ms total)
T0578 001:342 JLINK_WriteReg(R3, 0x00000000)  returns 0x00 (0000ms, 0816ms total)
T0578 001:342 JLINK_WriteReg(R4, 0x00000000)  returns 0x00 (0000ms, 0816ms total)
T0578 001:342 JLINK_WriteReg(R5, 0x00000000)  returns 0x00 (0000ms, 0816ms total)
T0578 001:342 JLINK_WriteReg(R6, 0x00000000)  returns 0x00 (0000ms, 0816ms total)
T0578 001:342 JLINK_WriteReg(R7, 0x00000000)  returns 0x00 (0000ms, 0816ms total)
T0578 001:342 JLINK_WriteReg(R8, 0x00000000)  returns 0x00 (0000ms, 0816ms total)
T0578 001:342 JLINK_WriteReg(R9, 0x100001DC)  returns 0x00 (0000ms, 0816ms total)
T0578 001:342 JLINK_WriteReg(R10, 0x00000000)  returns 0x00 (0000ms, 0816ms total)
T0578 001:342 JLINK_WriteReg(R11, 0x00000000)  returns 0x00 (0000ms, 0816ms total)
T0578 001:342 JLINK_WriteReg(R12, 0x00000000)  returns 0x00 (0000ms, 0816ms total)
T0578 001:342 JLINK_WriteReg(R13, 0x10000800)  returns 0x00 (0000ms, 0816ms total)
T0578 001:342 JLINK_WriteReg(R14, 0x10000001)  returns 0x00 (0000ms, 0816ms total)
T0578 001:342 JLINK_WriteReg(R15, 0x10000156)  returns 0x00 (0001ms, 0817ms total)
T0578 001:343 JLINK_WriteReg(XPSR, 0x01000000)  returns 0x00 (0000ms, 0817ms total)
T0578 001:343 JLINK_WriteReg(MSP, 0x10000800)  returns 0x00 (0000ms, 0817ms total)
T0578 001:343 JLINK_WriteReg(PSP, 0x10000800)  returns 0x00 (0000ms, 0817ms total)
T0578 001:343 JLINK_WriteReg(CFBP, 0x00000000)  returns 0x00 (0000ms, 0817ms total)
T0578 001:343 JLINK_SetBPEx(Addr = 0x10000000, Type = 0xFFFFFFF2)  returns 0x00000009 (0000ms, 0817ms total)
T0578 001:343 JLINK_Go() (0003ms, 0820ms total)
T0578 001:346 JLINK_IsHalted()  returns FALSE (0001ms, 0821ms total)
T0578 001:397 JLINK_IsHalted()  returns TRUE (0004ms, 0824ms total)
T0578 001:401 JLINK_ReadReg(R15)  returns 0x10000000 (0000ms, 0820ms total)
T0578 001:401 JLINK_ClrBPEx(BPHandle = 0x00000009)  returns 0x00 (0000ms, 0820ms total)
T0578 001:401 JLINK_ReadReg(R0)  returns 0x00000000 (0000ms, 0820ms total)
T0578 001:403 JLINK_WriteMem(0x10000204, 0x0400 Bytes, ...) -- Data:  A1 69 40 1A 4C E7 2D E9 F0 47 8E 4F 04 46 4F F4 ... -- CPU_WriteMem(1024 bytes @ 0x10000204)  returns 0x400 (0013ms, 0833ms total)
T0578 001:416 JLINK_WriteReg(R0, 0x00001400)  returns 0x00 (0000ms, 0833ms total)
T0578 001:416 JLINK_WriteReg(R1, 0x00000400)  returns 0x00 (0000ms, 0833ms total)
T0578 001:416 JLINK_WriteReg(R2, 0x10000204)  returns 0x00 (0000ms, 0833ms total)
T0578 001:416 JLINK_WriteReg(R3, 0x00000000)  returns 0x00 (0000ms, 0833ms total)
T0578 001:416 JLINK_WriteReg(R4, 0x00000000)  returns 0x00 (0000ms, 0833ms total)
T0578 001:416 JLINK_WriteReg(R5, 0x00000000)  returns 0x00 (0000ms, 0833ms total)
T0578 001:416 JLINK_WriteReg(R6, 0x00000000)  returns 0x00 (0000ms, 0833ms total)
T0578 001:416 JLINK_WriteReg(R7, 0x00000000)  returns 0x00 (0000ms, 0833ms total)
T0578 001:416 JLINK_WriteReg(R8, 0x00000000)  returns 0x00 (0000ms, 0833ms total)
T0578 001:416 JLINK_WriteReg(R9, 0x100001DC)  returns 0x00 (0001ms, 0834ms total)
T0578 001:417 JLINK_WriteReg(R10, 0x00000000)  returns 0x00 (0000ms, 0834ms total)
T0578 001:417 JLINK_WriteReg(R11, 0x00000000)  returns 0x00 (0000ms, 0834ms total)
T0578 001:417 JLINK_WriteReg(R12, 0x00000000)  returns 0x00 (0000ms, 0834ms total)
T0578 001:417 JLINK_WriteReg(R13, 0x10000800)  returns 0x00 (0000ms, 0834ms total)
T0578 001:417 JLINK_WriteReg(R14, 0x10000001)  returns 0x00 (0000ms, 0834ms total)
T0578 001:417 JLINK_WriteReg(R15, 0x10000156)  returns 0x00 (0000ms, 0834ms total)
T0578 001:417 JLINK_WriteReg(XPSR, 0x01000000)  returns 0x00 (0000ms, 0834ms total)
T0578 001:417 JLINK_WriteReg(MSP, 0x10000800)  returns 0x00 (0000ms, 0834ms total)
T0578 001:417 JLINK_WriteReg(PSP, 0x10000800)  returns 0x00 (0000ms, 0834ms total)
T0578 001:417 JLINK_WriteReg(CFBP, 0x00000000)  returns 0x00 (0000ms, 0834ms total)
T0578 001:417 JLINK_SetBPEx(Addr = 0x10000000, Type = 0xFFFFFFF2)  returns 0x0000000A (0000ms, 0834ms total)
T0578 001:417 JLINK_Go() (0004ms, 0838ms total)
T0578 001:421 JLINK_IsHalted()  returns FALSE (0001ms, 0839ms total)
T0578 001:472 JLINK_IsHalted()  returns TRUE (0004ms, 0842ms total)
T0578 001:476 JLINK_ReadReg(R15)  returns 0x10000000 (0000ms, 0838ms total)
T0578 001:476 JLINK_ClrBPEx(BPHandle = 0x0000000A)  returns 0x00 (0000ms, 0838ms total)
T0578 001:476 JLINK_ReadReg(R0)  returns 0x00000000 (0000ms, 0838ms total)
T0578 001:478 JLINK_WriteMem(0x10000204, 0x0400 Bytes, ...) -- Data:  65 72 65 6E 74 20 62 69 74 6D 61 70 73 20 77 69 ... -- CPU_WriteMem(1024 bytes @ 0x10000204)  returns 0x400 (0013ms, 0851ms total)
T0578 001:491 JLINK_WriteReg(R0, 0x00001800)  returns 0x00 (0000ms, 0851ms total)
T0578 001:491 JLINK_WriteReg(R1, 0x00000400)  returns 0x00 (0000ms, 0851ms total)
T0578 001:491 JLINK_WriteReg(R2, 0x10000204)  returns 0x00 (0000ms, 0851ms total)
T0578 001:491 JLINK_WriteReg(R3, 0x00000000)  returns 0x00 (0000ms, 0851ms total)
T0578 001:491 JLINK_WriteReg(R4, 0x00000000)  returns 0x00 (0000ms, 0851ms total)
T0578 001:491 JLINK_WriteReg(R5, 0x00000000)  returns 0x00 (0000ms, 0851ms total)
T0578 001:491 JLINK_WriteReg(R6, 0x00000000)  returns 0x00 (0000ms, 0851ms total)
T0578 001:492 JLINK_WriteReg(R7, 0x00000000)  returns 0x00 (0000ms, 0852ms total)
T0578 001:492 JLINK_WriteReg(R8, 0x00000000)  returns 0x00 (0000ms, 0852ms total)
T0578 001:492 JLINK_WriteReg(R9, 0x100001DC)  returns 0x00 (0000ms, 0852ms total)
T0578 001:492 JLINK_WriteReg(R10, 0x00000000)  returns 0x00 (0000ms, 0852ms total)
T0578 001:492 JLINK_WriteReg(R11, 0x00000000)  returns 0x00 (0000ms, 0852ms total)
T0578 001:492 JLINK_WriteReg(R12, 0x00000000)  returns 0x00 (0000ms, 0852ms total)
T0578 001:492 JLINK_WriteReg(R13, 0x10000800)  returns 0x00 (0000ms, 0852ms total)
T0578 001:492 JLINK_WriteReg(R14, 0x10000001)  returns 0x00 (0000ms, 0852ms total)
T0578 001:492 JLINK_WriteReg(R15, 0x10000156)  returns 0x00 (0000ms, 0852ms total)
T0578 001:492 JLINK_WriteReg(XPSR, 0x01000000)  returns 0x00 (0000ms, 0852ms total)
T0578 001:492 JLINK_WriteReg(MSP, 0x10000800)  returns 0x00 (0000ms, 0852ms total)
T0578 001:492 JLINK_WriteReg(PSP, 0x10000800)  returns 0x00 (0000ms, 0852ms total)
T0578 001:492 JLINK_WriteReg(CFBP, 0x00000000)  returns 0x00 (0001ms, 0853ms total)
T0578 001:493 JLINK_SetBPEx(Addr = 0x10000000, Type = 0xFFFFFFF2)  returns 0x0000000B (0000ms, 0853ms total)
T0578 001:493 JLINK_Go() (0003ms, 0856ms total)
T0578 001:496 JLINK_IsHalted()  returns FALSE (0001ms, 0857ms total)
T0578 001:547 JLINK_IsHalted()  returns TRUE (0004ms, 0860ms total)
T0578 001:551 JLINK_ReadReg(R15)  returns 0x10000000 (0000ms, 0856ms total)
T0578 001:551 JLINK_ClrBPEx(BPHandle = 0x0000000B)  returns 0x00 (0000ms, 0856ms total)
T0578 001:551 JLINK_ReadReg(R0)  returns 0x00000000 (0000ms, 0856ms total)
T0578 001:552 JLINK_WriteMem(0x10000204, 0x0400 Bytes, ...) -- Data:  1C 30 FF F7 6B FF 21 46 BD E8 70 40 15 48 8F 22 ... -- CPU_WriteMem(1024 bytes @ 0x10000204)  returns 0x400 (0014ms, 0870ms total)
T0578 001:566 JLINK_WriteReg(R0, 0x00001C00)  returns 0x00 (0000ms, 0870ms total)
T0578 001:566 JLINK_WriteReg(R1, 0x00000400)  returns 0x00 (0000ms, 0870ms total)
T0578 001:566 JLINK_WriteReg(R2, 0x10000204)  returns 0x00 (0000ms, 0870ms total)
T0578 001:566 JLINK_WriteReg(R3, 0x00000000)  returns 0x00 (0000ms, 0870ms total)
T0578 001:566 JLINK_WriteReg(R4, 0x00000000)  returns 0x00 (0000ms, 0870ms total)
T0578 001:566 JLINK_WriteReg(R5, 0x00000000)  returns 0x00 (0000ms, 0870ms total)
T0578 001:566 JLINK_WriteReg(R6, 0x00000000)  returns 0x00 (0000ms, 0870ms total)
T0578 001:566 JLINK_WriteReg(R7, 0x00000000)  returns 0x00 (0000ms, 0870ms total)
T0578 001:566 JLINK_WriteReg(R8, 0x00000000)  returns 0x00 (0000ms, 0870ms total)
T0578 001:566 JLINK_WriteReg(R9, 0x100001DC)  returns 0x00 (0001ms, 0871ms total)
T0578 001:567 JLINK_WriteReg(R10, 0x00000000)  returns 0x00 (0000ms, 0871ms total)
T0578 001:567 JLINK_WriteReg(R11, 0x00000000)  returns 0x00 (0000ms, 0871ms total)
T0578 001:567 JLINK_WriteReg(R12, 0x00000000)  returns 0x00 (0000ms, 0871ms total)
T0578 001:567 JLINK_WriteReg(R13, 0x10000800)  returns 0x00 (0000ms, 0871ms total)
T0578 001:567 JLINK_WriteReg(R14, 0x10000001)  returns 0x00 (0000ms, 0871ms total)
T0578 001:567 JLINK_WriteReg(R15, 0x10000156)  returns 0x00 (0000ms, 0871ms total)
T0578 001:567 JLINK_WriteReg(XPSR, 0x01000000)  returns 0x00 (0000ms, 0871ms total)
T0578 001:567 JLINK_WriteReg(MSP, 0x10000800)  returns 0x00 (0000ms, 0871ms total)
T0578 001:567 JLINK_WriteReg(PSP, 0x10000800)  returns 0x00 (0000ms, 0871ms total)
T0578 001:567 JLINK_WriteReg(CFBP, 0x00000000)  returns 0x00 (0000ms, 0871ms total)
T0578 001:567 JLINK_SetBPEx(Addr = 0x10000000, Type = 0xFFFFFFF2)  returns 0x0000000C (0000ms, 0871ms total)
T0578 001:567 JLINK_Go() (0004ms, 0875ms total)
T0578 001:571 JLINK_IsHalted()  returns FALSE (0001ms, 0876ms total)
T0578 001:622 JLINK_IsHalted()  returns TRUE (0005ms, 0880ms total)
T0578 001:627 JLINK_ReadReg(R15)  returns 0x10000000 (0000ms, 0875ms total)
T0578 001:627 JLINK_ClrBPEx(BPHandle = 0x0000000C)  returns 0x00 (0001ms, 0876ms total)
T0578 001:628 JLINK_ReadReg(R0)  returns 0x00000000 (0000ms, 0876ms total)
T0578 001:630 JLINK_WriteMem(0x10000204, 0x0400 Bytes, ...) -- Data:  72 20 64 72 61 77 69 6E 67 20 67 72 61 70 68 20 ... -- CPU_WriteMem(1024 bytes @ 0x10000204)  returns 0x400 (0013ms, 0889ms total)
T0578 001:643 JLINK_WriteReg(R0, 0x00002000)  returns 0x00 (0000ms, 0889ms total)
T0578 001:643 JLINK_WriteReg(R1, 0x00000400)  returns 0x00 (0000ms, 0889ms total)
T0578 001:643 JLINK_WriteReg(R2, 0x10000204)  returns 0x00 (0000ms, 0889ms total)
T0578 001:643 JLINK_WriteReg(R3, 0x00000000)  returns 0x00 (0000ms, 0889ms total)
T0578 001:643 JLINK_WriteReg(R4, 0x00000000)  returns 0x00 (0000ms, 0889ms total)
T0578 001:643 JLINK_WriteReg(R5, 0x00000000)  returns 0x00 (0000ms, 0889ms total)
T0578 001:643 JLINK_WriteReg(R6, 0x00000000)  returns 0x00 (0000ms, 0889ms total)
T0578 001:643 JLINK_WriteReg(R7, 0x00000000)  returns 0x00 (0000ms, 0889ms total)
T0578 001:643 JLINK_WriteReg(R8, 0x00000000)  returns 0x00 (0000ms, 0889ms total)
T0578 001:643 JLINK_WriteReg(R9, 0x100001DC)  returns 0x00 (0001ms, 0890ms total)
T0578 001:644 JLINK_WriteReg(R10, 0x00000000)  returns 0x00 (0000ms, 0890ms total)
T0578 001:644 JLINK_WriteReg(R11, 0x00000000)  returns 0x00 (0000ms, 0890ms total)
T0578 001:644 JLINK_WriteReg(R12, 0x00000000)  returns 0x00 (0000ms, 0890ms total)
T0578 001:644 JLINK_WriteReg(R13, 0x10000800)  returns 0x00 (0000ms, 0890ms total)
T0578 001:644 JLINK_WriteReg(R14, 0x10000001)  returns 0x00 (0000ms, 0890ms total)
T0578 001:644 JLINK_WriteReg(R15, 0x10000156)  returns 0x00 (0000ms, 0890ms total)
T0578 001:644 JLINK_WriteReg(XPSR, 0x01000000)  returns 0x00 (0000ms, 0890ms total)
T0578 001:644 JLINK_WriteReg(MSP, 0x10000800)  returns 0x00 (0000ms, 0890ms total)
T0578 001:644 JLINK_WriteReg(PSP, 0x10000800)  returns 0x00 (0000ms, 0890ms total)
T0578 001:644 JLINK_WriteReg(CFBP, 0x00000000)  returns 0x00 (0000ms, 0890ms total)
T0578 001:644 JLINK_SetBPEx(Addr = 0x10000000, Type = 0xFFFFFFF2)  returns 0x0000000D (0000ms, 0890ms total)
T0578 001:644 JLINK_Go() (0004ms, 0894ms total)
T0578 001:648 JLINK_IsHalted()  returns FALSE (0001ms, 0895ms total)
T0578 001:699 JLINK_IsHalted()  returns TRUE (0004ms, 0898ms total)
T0578 001:703 JLINK_ReadReg(R15)  returns 0x10000000 (0000ms, 0894ms total)
T0578 001:703 JLINK_ClrBPEx(BPHandle = 0x0000000D)  returns 0x00 (0000ms, 0894ms total)
T0578 001:703 JLINK_ReadReg(R0)  returns 0x00000000 (0000ms, 0894ms total)
T0578 001:704 JLINK_WriteMem(0x10000204, 0x0400 Bytes, ...) -- Data:  20 73 70 65 65 64 00 00 98 28 02 00 BC DD 01 00 ... -- CPU_WriteMem(1024 bytes @ 0x10000204)  returns 0x400 (0014ms, 0908ms total)
T0578 001:718 JLINK_WriteReg(R0, 0x00002400)  returns 0x00 (0000ms, 0908ms total)
T0578 001:718 JLINK_WriteReg(R1, 0x00000400)  returns 0x00 (0000ms, 0908ms total)
T0578 001:718 JLINK_WriteReg(R2, 0x10000204)  returns 0x00 (0000ms, 0908ms total)
T0578 001:718 JLINK_WriteReg(R3, 0x00000000)  returns 0x00 (0000ms, 0908ms total)
T0578 001:718 JLINK_WriteReg(R4, 0x00000000)  returns 0x00 (0000ms, 0908ms total)
T0578 001:718 JLINK_WriteReg(R5, 0x00000000)  returns 0x00 (0000ms, 0908ms total)
T0578 001:718 JLINK_WriteReg(R6, 0x00000000)  returns 0x00 (0000ms, 0908ms total)
T0578 001:718 JLINK_WriteReg(R7, 0x00000000)  returns 0x00 (0000ms, 0908ms total)
T0578 001:718 JLINK_WriteReg(R8, 0x00000000)  returns 0x00 (0000ms, 0908ms total)
T0578 001:718 JLINK_WriteReg(R9, 0x100001DC)  returns 0x00 (0001ms, 0909ms total)
T0578 001:719 JLINK_WriteReg(R10, 0x00000000)  returns 0x00 (0000ms, 0909ms total)
T0578 001:719 JLINK_WriteReg(R11, 0x00000000)  returns 0x00 (0000ms, 0909ms total)
T0578 001:719 JLINK_WriteReg(R12, 0x00000000)  returns 0x00 (0000ms, 0909ms total)
T0578 001:719 JLINK_WriteReg(R13, 0x10000800)  returns 0x00 (0000ms, 0909ms total)
T0578 001:719 JLINK_WriteReg(R14, 0x10000001)  returns 0x00 (0000ms, 0909ms total)
T0578 001:719 JLINK_WriteReg(R15, 0x10000156)  returns 0x00 (0000ms, 0909ms total)
T0578 001:719 JLINK_WriteReg(XPSR, 0x01000000)  returns 0x00 (0000ms, 0909ms total)
T0578 001:719 JLINK_WriteReg(MSP, 0x10000800)  returns 0x00 (0000ms, 0909ms total)
T0578 001:719 JLINK_WriteReg(PSP, 0x10000800)  returns 0x00 (0000ms, 0909ms total)
T0578 001:719 JLINK_WriteReg(CFBP, 0x00000000)  returns 0x00 (0000ms, 0909ms total)
T0578 001:719 JLINK_SetBPEx(Addr = 0x10000000, Type = 0xFFFFFFF2)  returns 0x0000000E (0000ms, 0909ms total)
T0578 001:719 JLINK_Go() (0004ms, 0913ms total)
T0578 001:723 JLINK_IsHalted()  returns FALSE (0001ms, 0914ms total)
T0578 001:774 JLINK_IsHalted()  returns TRUE (0004ms, 0917ms total)
T0578 001:778 JLINK_ReadReg(R15)  returns 0x10000000 (0000ms, 0913ms total)
T0578 001:778 JLINK_ClrBPEx(BPHandle = 0x0000000E)  returns 0x00 (0000ms, 0913ms total)
T0578 001:778 JLINK_ReadReg(R0)  returns 0x00000000 (0000ms, 0913ms total)
T0578 001:779 JLINK_WriteMem(0x10000204, 0x0400 Bytes, ...) -- Data:  69 6E 67 0A 66 6F 72 20 74 72 61 6E 73 70 61 72 ... -- CPU_WriteMem(1024 bytes @ 0x10000204)  returns 0x400 (0014ms, 0927ms total)
T0578 001:793 JLINK_WriteReg(R0, 0x00002800)  returns 0x00 (0000ms, 0927ms total)
T0578 001:793 JLINK_WriteReg(R1, 0x00000400)  returns 0x00 (0000ms, 0927ms total)
T0578 001:793 JLINK_WriteReg(R2, 0x10000204)  returns 0x00 (0000ms, 0927ms total)
T0578 001:793 JLINK_WriteReg(R3, 0x00000000)  returns 0x00 (0000ms, 0927ms total)
T0578 001:793 JLINK_WriteReg(R4, 0x00000000)  returns 0x00 (0000ms, 0927ms total)
T0578 001:793 JLINK_WriteReg(R5, 0x00000000)  returns 0x00 (0000ms, 0927ms total)
T0578 001:793 JLINK_WriteReg(R6, 0x00000000)  returns 0x00 (0000ms, 0927ms total)
T0578 001:793 JLINK_WriteReg(R7, 0x00000000)  returns 0x00 (0000ms, 0927ms total)
T0578 001:793 JLINK_WriteReg(R8, 0x00000000)  returns 0x00 (0000ms, 0927ms total)
T0578 001:793 JLINK_WriteReg(R9, 0x100001DC)  returns 0x00 (0001ms, 0928ms total)
T0578 001:794 JLINK_WriteReg(R10, 0x00000000)  returns 0x00 (0000ms, 0928ms total)
T0578 001:794 JLINK_WriteReg(R11, 0x00000000)  returns 0x00 (0000ms, 0928ms total)
T0578 001:794 JLINK_WriteReg(R12, 0x00000000)  returns 0x00 (0000ms, 0928ms total)
T0578 001:794 JLINK_WriteReg(R13, 0x10000800)  returns 0x00 (0000ms, 0928ms total)
T0578 001:794 JLINK_WriteReg(R14, 0x10000001)  returns 0x00 (0000ms, 0928ms total)
T0578 001:794 JLINK_WriteReg(R15, 0x10000156)  returns 0x00 (0000ms, 0928ms total)
T0578 001:794 JLINK_WriteReg(XPSR, 0x01000000)  returns 0x00 (0000ms, 0928ms total)
T0578 001:794 JLINK_WriteReg(MSP, 0x10000800)  returns 0x00 (0000ms, 0928ms total)
T0578 001:794 JLINK_WriteReg(PSP, 0x10000800)  returns 0x00 (0000ms, 0928ms total)
T0578 001:794 JLINK_WriteReg(CFBP, 0x00000000)  returns 0x00 (0000ms, 0928ms total)
T0578 001:794 JLINK_SetBPEx(Addr = 0x10000000, Type = 0xFFFFFFF2)  returns 0x0000000F (0000ms, 0928ms total)
T0578 001:795 JLINK_Go() (0003ms, 0931ms total)
T0578 001:798 JLINK_IsHalted()  returns FALSE (0001ms, 0932ms total)
T0578 001:849 JLINK_IsHalted()  returns TRUE (0004ms, 0935ms total)
T0578 001:853 JLINK_ReadReg(R15)  returns 0x10000000 (0000ms, 0931ms total)
T0578 001:853 JLINK_ClrBPEx(BPHandle = 0x0000000F)  returns 0x00 (0000ms, 0931ms total)
T0578 001:853 JLINK_ReadReg(R0)  returns 0x00000000 (0000ms, 0931ms total)
T0578 001:856 JLINK_WriteMem(0x10000204, 0x0400 Bytes, ...) -- Data:  44 69 8B 42 05 DD C3 69 54 F8 23 30 1B 88 5B 42 ... -- CPU_WriteMem(1024 bytes @ 0x10000204)  returns 0x400 (0014ms, 0945ms total)
T0578 001:870 JLINK_WriteReg(R0, 0x00002C00)  returns 0x00 (0000ms, 0945ms total)
T0578 001:870 JLINK_WriteReg(R1, 0x00000400)  returns 0x00 (0000ms, 0945ms total)
T0578 001:870 JLINK_WriteReg(R2, 0x10000204)  returns 0x00 (0000ms, 0945ms total)
T0578 001:870 JLINK_WriteReg(R3, 0x00000000)  returns 0x00 (0000ms, 0945ms total)
T0578 001:870 JLINK_WriteReg(R4, 0x00000000)  returns 0x00 (0000ms, 0945ms total)
T0578 001:870 JLINK_WriteReg(R5, 0x00000000)  returns 0x00 (0000ms, 0945ms total)
T0578 001:870 JLINK_WriteReg(R6, 0x00000000)  returns 0x00 (0000ms, 0945ms total)
T0578 001:870 JLINK_WriteReg(R7, 0x00000000)  returns 0x00 (0000ms, 0945ms total)
T0578 001:870 JLINK_WriteReg(R8, 0x00000000)  returns 0x00 (0000ms, 0945ms total)
T0578 001:870 JLINK_WriteReg(R9, 0x100001DC)  returns 0x00 (0001ms, 0946ms total)
T0578 001:871 JLINK_WriteReg(R10, 0x00000000)  returns 0x00 (0000ms, 0946ms total)
T0578 001:871 JLINK_WriteReg(R11, 0x00000000)  returns 0x00 (0000ms, 0946ms total)
T0578 001:871 JLINK_WriteReg(R12, 0x00000000)  returns 0x00 (0000ms, 0946ms total)
T0578 001:871 JLINK_WriteReg(R13, 0x10000800)  returns 0x00 (0000ms, 0946ms total)
T0578 001:871 JLINK_WriteReg(R14, 0x10000001)  returns 0x00 (0000ms, 0946ms total)
T0578 001:871 JLINK_WriteReg(R15, 0x10000156)  returns 0x00 (0000ms, 0946ms total)
T0578 001:871 JLINK_WriteReg(XPSR, 0x01000000)  returns 0x00 (0000ms, 0946ms total)
T0578 001:871 JLINK_WriteReg(MSP, 0x10000800)  returns 0x00 (0000ms, 0946ms total)
T0578 001:871 JLINK_WriteReg(PSP, 0x10000800)  returns 0x00 (0000ms, 0946ms total)
T0578 001:871 JLINK_WriteReg(CFBP, 0x00000000)  returns 0x00 (0000ms, 0946ms total)
T0578 001:871 JLINK_SetBPEx(Addr = 0x10000000, Type = 0xFFFFFFF2)  returns 0x00000010 (0000ms, 0946ms total)
T0578 001:871 JLINK_Go() (0004ms, 0950ms total)
T0578 001:875 JLINK_IsHalted()  returns FALSE (0001ms, 0951ms total)
T0578 001:926 JLINK_IsHalted()  returns TRUE (0005ms, 0955ms total)
T0578 001:931 JLINK_ReadReg(R15)  returns 0x10000000 (0000ms, 0950ms total)
T0578 001:931 JLINK_ClrBPEx(BPHandle = 0x00000010)  returns 0x00 (0000ms, 0950ms total)
T0578 001:931 JLINK_ReadReg(R0)  returns 0x00000000 (0000ms, 0950ms total)
T0578 001:933 JLINK_WriteMem(0x10000204, 0x0400 Bytes, ...) -- Data:  40 F8 04 3B 08 BF 70 47 D2 07 28 BF 31 F8 02 3B ... -- CPU_WriteMem(1024 bytes @ 0x10000204)  returns 0x400 (0014ms, 0964ms total)
T0578 001:947 JLINK_WriteReg(R0, 0x00003000)  returns 0x00 (0000ms, 0964ms total)
T0578 001:947 JLINK_WriteReg(R1, 0x00000400)  returns 0x00 (0000ms, 0964ms total)
T0578 001:947 JLINK_WriteReg(R2, 0x10000204)  returns 0x00 (0000ms, 0964ms total)
T0578 001:947 JLINK_WriteReg(R3, 0x00000000)  returns 0x00 (0000ms, 0964ms total)
T0578 001:947 JLINK_WriteReg(R4, 0x00000000)  returns 0x00 (0000ms, 0964ms total)
T0578 001:947 JLINK_WriteReg(R5, 0x00000000)  returns 0x00 (0000ms, 0964ms total)
T0578 001:947 JLINK_WriteReg(R6, 0x00000000)  returns 0x00 (0000ms, 0964ms total)
T0578 001:947 JLINK_WriteReg(R7, 0x00000000)  returns 0x00 (0000ms, 0964ms total)
T0578 001:947 JLINK_WriteReg(R8, 0x00000000)  returns 0x00 (0000ms, 0964ms total)
T0578 001:947 JLINK_WriteReg(R9, 0x100001DC)  returns 0x00 (0000ms, 0964ms total)
T0578 001:947 JLINK_WriteReg(R10, 0x00000000)  returns 0x00 (0000ms, 0964ms total)
T0578 001:947 JLINK_WriteReg(R11, 0x00000000)  returns 0x00 (0000ms, 0964ms total)
T0578 001:947 JLINK_WriteReg(R12, 0x00000000)  returns 0x00 (0000ms, 0964ms total)
T0578 001:947 JLINK_WriteReg(R13, 0x10000800)  returns 0x00 (0000ms, 0964ms total)
T0578 001:947 JLINK_WriteReg(R14, 0x10000001)  returns 0x00 (0000ms, 0964ms total)
T0578 001:947 JLINK_WriteReg(R15, 0x10000156)  returns 0x00 (0000ms, 0964ms total)
T0578 001:947 JLINK_WriteReg(XPSR, 0x01000000)  returns 0x00 (0000ms, 0964ms total)
T0578 001:947 JLINK_WriteReg(MSP, 0x10000800)  returns 0x00 (0000ms, 0964ms total)
T0578 001:947 JLINK_WriteReg(PSP, 0x10000800)  returns 0x00 (0000ms, 0964ms total)
T0578 001:947 JLINK_WriteReg(CFBP, 0x00000000)  returns 0x00 (0000ms, 0964ms total)
T0578 001:947 JLINK_SetBPEx(Addr = 0x10000000, Type = 0xFFFFFFF2)  returns 0x00000011 (0000ms, 0964ms total)
T0578 001:947 JLINK_Go() (0004ms, 0968ms total)
T0578 001:951 JLINK_IsHalted()  returns FALSE (0001ms, 0969ms total)
T0578 002:002 JLINK_IsHalted()  returns TRUE (0005ms, 0973ms total)
T0578 002:007 JLINK_ReadReg(R15)  returns 0x10000000 (0000ms, 0968ms total)
T0578 002:007 JLINK_ClrBPEx(BPHandle = 0x00000011)  returns 0x00 (0000ms, 0968ms total)
T0578 002:007 JLINK_ReadReg(R0)  returns 0x00000000 (0000ms, 0968ms total)
T0578 002:008 JLINK_WriteMem(0x10000204, 0x0400 Bytes, ...) -- Data:  03 F0 2C FC 76 1C 02 2E D4 DB A8 68 04 F0 1D FD ... -- CPU_WriteMem(1024 bytes @ 0x10000204)  returns 0x400 (0013ms, 0981ms total)
T0578 002:022 JLINK_WriteReg(R0, 0x00003400)  returns 0x00 (0000ms, 0981ms total)
T0578 002:022 JLINK_WriteReg(R1, 0x00000400)  returns 0x00 (0000ms, 0981ms total)
T0578 002:022 JLINK_WriteReg(R2, 0x10000204)  returns 0x00 (0000ms, 0981ms total)
T0578 002:022 JLINK_WriteReg(R3, 0x00000000)  returns 0x00 (0000ms, 0981ms total)
T0578 002:022 JLINK_WriteReg(R4, 0x00000000)  returns 0x00 (0000ms, 0981ms total)
T0578 002:022 JLINK_WriteReg(R5, 0x00000000)  returns 0x00 (0000ms, 0981ms total)
T0578 002:022 JLINK_WriteReg(R6, 0x00000000)  returns 0x00 (0000ms, 0981ms total)
T0578 002:022 JLINK_WriteReg(R7, 0x00000000)  returns 0x00 (0000ms, 0981ms total)
T0578 002:022 JLINK_WriteReg(R8, 0x00000000)  returns 0x00 (0000ms, 0981ms total)
